Freq.	V(vd)	V(vtest_in)	I(V4)
1.00000000000000e+01	-5.38847696554954e-01,0.00000000000000e+00	1.00000000000000e+00,0.00000000000000e+00	-6.66666666666667e-07,0.00000000000000e+00
1.02329299228075e+01	-5.38847696554954e-01,0.00000000000000e+00	1.00000000000000e+00,0.00000000000000e+00	-6.66666666666667e-07,0.00000000000000e+00
1.04712854805090e+01	-5.38847696554954e-01,0.00000000000000e+00	1.00000000000000e+00,0.00000000000000e+00	-6.66666666666667e-07,0.00000000000000e+00
1.07151930523761e+01	-5.38847696554954e-01,0.00000000000000e+00	1.00000000000000e+00,0.00000000000000e+00	-6.66666666666667e-07,0.00000000000000e+00
1.09647819614319e+01	-5.38847696554954e-01,0.00000000000000e+00	1.00000000000000e+00,0.00000000000000e+00	-6.66666666666667e-07,0.00000000000000e+00
1.12201845430196e+01	-5.38847696554954e-01,0.00000000000000e+00	1.00000000000000e+00,0.00000000000000e+00	-6.66666666666667e-07,0.00000000000000e+00
1.14815362149688e+01	-5.38847696554954e-01,0.00000000000000e+00	1.00000000000000e+00,0.00000000000000e+00	-6.66666666666667e-07,0.00000000000000e+00
1.17489755493953e+01	-5.38847696554954e-01,0.00000000000000e+00	1.00000000000000e+00,0.00000000000000e+00	-6.66666666666667e-07,0.00000000000000e+00
1.20226443461741e+01	-5.38847696554954e-01,0.00000000000000e+00	1.00000000000000e+00,0.00000000000000e+00	-6.66666666666667e-07,0.00000000000000e+00
1.23026877081238e+01	-5.38847696554954e-01,0.00000000000000e+00	1.00000000000000e+00,0.00000000000000e+00	-6.66666666666667e-07,0.00000000000000e+00
1.25892541179417e+01	-5.38847696554954e-01,0.00000000000000e+00	1.00000000000000e+00,0.00000000000000e+00	-6.66666666666667e-07,0.00000000000000e+00
1.28824955169313e+01	-5.38847696554954e-01,0.00000000000000e+00	1.00000000000000e+00,0.00000000000000e+00	-6.66666666666667e-07,0.00000000000000e+00
1.31825673855641e+01	-5.38847696554954e-01,0.00000000000000e+00	1.00000000000000e+00,0.00000000000000e+00	-6.66666666666667e-07,0.00000000000000e+00
1.34896288259165e+01	-5.38847696554954e-01,0.00000000000000e+00	1.00000000000000e+00,0.00000000000000e+00	-6.66666666666667e-07,0.00000000000000e+00
1.38038426460288e+01	-5.38847696554954e-01,0.00000000000000e+00	1.00000000000000e+00,0.00000000000000e+00	-6.66666666666667e-07,0.00000000000000e+00
1.41253754462275e+01	-5.38847696554954e-01,0.00000000000000e+00	1.00000000000000e+00,0.00000000000000e+00	-6.66666666666667e-07,0.00000000000000e+00
1.44543977074593e+01	-5.38847696554954e-01,0.00000000000000e+00	1.00000000000000e+00,0.00000000000000e+00	-6.66666666666667e-07,0.00000000000000e+00
1.47910838816821e+01	-5.38847696554954e-01,0.00000000000000e+00	1.00000000000000e+00,0.00000000000000e+00	-6.66666666666667e-07,0.00000000000000e+00
1.51356124843621e+01	-5.38847696554954e-01,0.00000000000000e+00	1.00000000000000e+00,0.00000000000000e+00	-6.66666666666667e-07,0.00000000000000e+00
1.54881661891248e+01	-5.38847696554954e-01,0.00000000000000e+00	1.00000000000000e+00,0.00000000000000e+00	-6.66666666666667e-07,0.00000000000000e+00
1.58489319246111e+01	-5.38847696554954e-01,0.00000000000000e+00	1.00000000000000e+00,0.00000000000000e+00	-6.66666666666667e-07,0.00000000000000e+00
1.62181009735893e+01	-5.38847696554954e-01,0.00000000000000e+00	1.00000000000000e+00,0.00000000000000e+00	-6.66666666666667e-07,0.00000000000000e+00
1.65958690743756e+01	-5.38847696554954e-01,0.00000000000000e+00	1.00000000000000e+00,0.00000000000000e+00	-6.66666666666667e-07,0.00000000000000e+00
1.69824365246174e+01	-5.38847696554954e-01,0.00000000000000e+00	1.00000000000000e+00,0.00000000000000e+00	-6.66666666666667e-07,0.00000000000000e+00
1.73780082874937e+01	-5.38847696554954e-01,0.00000000000000e+00	1.00000000000000e+00,0.00000000000000e+00	-6.66666666666667e-07,0.00000000000000e+00
1.77827941003892e+01	-5.38847696554954e-01,0.00000000000000e+00	1.00000000000000e+00,0.00000000000000e+00	-6.66666666666667e-07,0.00000000000000e+00
1.81970085860998e+01	-5.38847696554954e-01,0.00000000000000e+00	1.00000000000000e+00,0.00000000000000e+00	-6.66666666666667e-07,0.00000000000000e+00
1.86208713666287e+01	-5.38847696554954e-01,0.00000000000000e+00	1.00000000000000e+00,0.00000000000000e+00	-6.66666666666667e-07,0.00000000000000e+00
1.90546071796325e+01	-5.38847696554954e-01,0.00000000000000e+00	1.00000000000000e+00,0.00000000000000e+00	-6.66666666666667e-07,0.00000000000000e+00
1.94984459975804e+01	-5.38847696554954e-01,0.00000000000000e+00	1.00000000000000e+00,0.00000000000000e+00	-6.66666666666667e-07,0.00000000000000e+00
1.99526231496888e+01	-5.38847696554954e-01,0.00000000000000e+00	1.00000000000000e+00,0.00000000000000e+00	-6.66666666666667e-07,0.00000000000000e+00
2.04173794466953e+01	-5.38847696554954e-01,0.00000000000000e+00	1.00000000000000e+00,0.00000000000000e+00	-6.66666666666667e-07,0.00000000000000e+00
2.08929613085404e+01	-5.38847696554954e-01,0.00000000000000e+00	1.00000000000000e+00,0.00000000000000e+00	-6.66666666666667e-07,0.00000000000000e+00
2.13796208950223e+01	-5.38847696554954e-01,0.00000000000000e+00	1.00000000000000e+00,0.00000000000000e+00	-6.66666666666667e-07,0.00000000000000e+00
2.18776162394955e+01	-5.38847696554954e-01,0.00000000000000e+00	1.00000000000000e+00,0.00000000000000e+00	-6.66666666666667e-07,0.00000000000000e+00
2.23872113856834e+01	-5.38847696554954e-01,0.00000000000000e+00	1.00000000000000e+00,0.00000000000000e+00	-6.66666666666667e-07,0.00000000000000e+00
2.29086765276777e+01	-5.38847696554954e-01,0.00000000000000e+00	1.00000000000000e+00,0.00000000000000e+00	-6.66666666666667e-07,0.00000000000000e+00
2.34422881531992e+01	-5.38847696554954e-01,0.00000000000000e+00	1.00000000000000e+00,0.00000000000000e+00	-6.66666666666667e-07,0.00000000000000e+00
2.39883291901949e+01	-5.38847696554954e-01,0.00000000000000e+00	1.00000000000000e+00,0.00000000000000e+00	-6.66666666666667e-07,0.00000000000000e+00
2.45470891568503e+01	-5.38847696554954e-01,0.00000000000000e+00	1.00000000000000e+00,0.00000000000000e+00	-6.66666666666667e-07,0.00000000000000e+00
2.51188643150958e+01	-5.38847696554954e-01,0.00000000000000e+00	1.00000000000000e+00,0.00000000000000e+00	-6.66666666666667e-07,0.00000000000000e+00
2.57039578276886e+01	-5.38847696554954e-01,0.00000000000000e+00	1.00000000000000e+00,0.00000000000000e+00	-6.66666666666667e-07,0.00000000000000e+00
2.63026799189538e+01	-5.38847696554954e-01,0.00000000000000e+00	1.00000000000000e+00,0.00000000000000e+00	-6.66666666666667e-07,0.00000000000000e+00
2.69153480392691e+01	-5.38847696554954e-01,0.00000000000000e+00	1.00000000000000e+00,0.00000000000000e+00	-6.66666666666667e-07,0.00000000000000e+00
2.75422870333816e+01	-5.38847696554954e-01,0.00000000000000e+00	1.00000000000000e+00,0.00000000000000e+00	-6.66666666666667e-07,0.00000000000000e+00
2.81838293126445e+01	-5.38847696554954e-01,0.00000000000000e+00	1.00000000000000e+00,0.00000000000000e+00	-6.66666666666667e-07,0.00000000000000e+00
2.88403150312660e+01	-5.38847696554954e-01,0.00000000000000e+00	1.00000000000000e+00,0.00000000000000e+00	-6.66666666666667e-07,0.00000000000000e+00
2.95120922666638e+01	-5.38847696554954e-01,0.00000000000000e+00	1.00000000000000e+00,0.00000000000000e+00	-6.66666666666667e-07,0.00000000000000e+00
3.01995172040201e+01	-5.38847696554954e-01,0.00000000000000e+00	1.00000000000000e+00,0.00000000000000e+00	-6.66666666666667e-07,0.00000000000000e+00
3.09029543251359e+01	-5.38847696554954e-01,0.00000000000000e+00	1.00000000000000e+00,0.00000000000000e+00	-6.66666666666667e-07,0.00000000000000e+00
3.16227766016838e+01	-5.38847696554954e-01,0.00000000000000e+00	1.00000000000000e+00,0.00000000000000e+00	-6.66666666666667e-07,0.00000000000000e+00
3.23593656929628e+01	-5.38847696554954e-01,0.00000000000000e+00	1.00000000000000e+00,0.00000000000000e+00	-6.66666666666667e-07,0.00000000000000e+00
3.31131121482591e+01	-5.38847696554954e-01,0.00000000000000e+00	1.00000000000000e+00,0.00000000000000e+00	-6.66666666666667e-07,0.00000000000000e+00
3.38844156139202e+01	-5.38847696554954e-01,0.00000000000000e+00	1.00000000000000e+00,0.00000000000000e+00	-6.66666666666667e-07,0.00000000000000e+00
3.46736850452531e+01	-5.38847696554954e-01,0.00000000000000e+00	1.00000000000000e+00,0.00000000000000e+00	-6.66666666666667e-07,0.00000000000000e+00
3.54813389233575e+01	-5.38847696554954e-01,0.00000000000000e+00	1.00000000000000e+00,0.00000000000000e+00	-6.66666666666667e-07,0.00000000000000e+00
3.63078054770101e+01	-5.38847696554954e-01,0.00000000000000e+00	1.00000000000000e+00,0.00000000000000e+00	-6.66666666666667e-07,0.00000000000000e+00
3.71535229097172e+01	-5.38847696554954e-01,0.00000000000000e+00	1.00000000000000e+00,0.00000000000000e+00	-6.66666666666667e-07,0.00000000000000e+00
3.80189396320561e+01	-5.38847696554954e-01,0.00000000000000e+00	1.00000000000000e+00,0.00000000000000e+00	-6.66666666666667e-07,0.00000000000000e+00
3.89045144994280e+01	-5.38847696554954e-01,0.00000000000000e+00	1.00000000000000e+00,0.00000000000000e+00	-6.66666666666667e-07,0.00000000000000e+00
3.98107170553497e+01	-5.38847696554954e-01,0.00000000000000e+00	1.00000000000000e+00,0.00000000000000e+00	-6.66666666666667e-07,0.00000000000000e+00
4.07380277804112e+01	-5.38847696554954e-01,0.00000000000000e+00	1.00000000000000e+00,0.00000000000000e+00	-6.66666666666667e-07,0.00000000000000e+00
4.16869383470335e+01	-5.38847696554954e-01,0.00000000000000e+00	1.00000000000000e+00,0.00000000000000e+00	-6.66666666666667e-07,0.00000000000000e+00
4.26579518801592e+01	-5.38847696554954e-01,0.00000000000000e+00	1.00000000000000e+00,0.00000000000000e+00	-6.66666666666667e-07,0.00000000000000e+00
4.36515832240165e+01	-5.38847696554954e-01,0.00000000000000e+00	1.00000000000000e+00,0.00000000000000e+00	-6.66666666666667e-07,0.00000000000000e+00
4.46683592150962e+01	-5.38847696554954e-01,0.00000000000000e+00	1.00000000000000e+00,0.00000000000000e+00	-6.66666666666667e-07,0.00000000000000e+00
4.57088189614874e+01	-5.38847696554954e-01,0.00000000000000e+00	1.00000000000000e+00,0.00000000000000e+00	-6.66666666666667e-07,0.00000000000000e+00
4.67735141287197e+01	-5.38847696554954e-01,0.00000000000000e+00	1.00000000000000e+00,0.00000000000000e+00	-6.66666666666667e-07,0.00000000000000e+00
4.78630092322638e+01	-5.38847696554954e-01,0.00000000000000e+00	1.00000000000000e+00,0.00000000000000e+00	-6.66666666666667e-07,0.00000000000000e+00
4.89778819368445e+01	-5.38847696554954e-01,0.00000000000000e+00	1.00000000000000e+00,0.00000000000000e+00	-6.66666666666667e-07,0.00000000000000e+00
5.01187233627271e+01	-5.38847696554954e-01,0.00000000000000e+00	1.00000000000000e+00,0.00000000000000e+00	-6.66666666666667e-07,0.00000000000000e+00
5.12861383991364e+01	-5.38847696554954e-01,0.00000000000000e+00	1.00000000000000e+00,0.00000000000000e+00	-6.66666666666667e-07,0.00000000000000e+00
5.24807460249772e+01	-5.38847696554954e-01,0.00000000000000e+00	1.00000000000000e+00,0.00000000000000e+00	-6.66666666666667e-07,0.00000000000000e+00
5.37031796370252e+01	-5.38847696554954e-01,0.00000000000000e+00	1.00000000000000e+00,0.00000000000000e+00	-6.66666666666667e-07,0.00000000000000e+00
5.49540873857623e+01	-5.38847696554954e-01,0.00000000000000e+00	1.00000000000000e+00,0.00000000000000e+00	-6.66666666666667e-07,0.00000000000000e+00
5.62341325190348e+01	-5.38847696554954e-01,0.00000000000000e+00	1.00000000000000e+00,0.00000000000000e+00	-6.66666666666667e-07,0.00000000000000e+00
5.75439937337156e+01	-5.38847696554954e-01,0.00000000000000e+00	1.00000000000000e+00,0.00000000000000e+00	-6.66666666666667e-07,0.00000000000000e+00
5.88843655355588e+01	-5.38847696554954e-01,0.00000000000000e+00	1.00000000000000e+00,0.00000000000000e+00	-6.66666666666667e-07,0.00000000000000e+00
6.02559586074357e+01	-5.38847696554954e-01,0.00000000000000e+00	1.00000000000000e+00,0.00000000000000e+00	-6.66666666666667e-07,0.00000000000000e+00
6.16595001861481e+01	-5.38847696554954e-01,0.00000000000000e+00	1.00000000000000e+00,0.00000000000000e+00	-6.66666666666667e-07,0.00000000000000e+00
6.30957344480192e+01	-5.38847696554954e-01,0.00000000000000e+00	1.00000000000000e+00,0.00000000000000e+00	-6.66666666666667e-07,0.00000000000000e+00
6.45654229034654e+01	-5.38847696554954e-01,0.00000000000000e+00	1.00000000000000e+00,0.00000000000000e+00	-6.66666666666667e-07,0.00000000000000e+00
6.60693448007595e+01	-5.38847696554954e-01,0.00000000000000e+00	1.00000000000000e+00,0.00000000000000e+00	-6.66666666666667e-07,0.00000000000000e+00
6.76082975391980e+01	-5.38847696554954e-01,0.00000000000000e+00	1.00000000000000e+00,0.00000000000000e+00	-6.66666666666667e-07,0.00000000000000e+00
6.91830970918935e+01	-5.38847696554954e-01,0.00000000000000e+00	1.00000000000000e+00,0.00000000000000e+00	-6.66666666666667e-07,0.00000000000000e+00
7.07945784384136e+01	-5.38847696554954e-01,0.00000000000000e+00	1.00000000000000e+00,0.00000000000000e+00	-6.66666666666667e-07,0.00000000000000e+00
7.24435960074988e+01	-5.38847696554954e-01,0.00000000000000e+00	1.00000000000000e+00,0.00000000000000e+00	-6.66666666666667e-07,0.00000000000000e+00
7.41310241300916e+01	-5.38847696554954e-01,0.00000000000000e+00	1.00000000000000e+00,0.00000000000000e+00	-6.66666666666667e-07,0.00000000000000e+00
7.58577575029182e+01	-5.38847696554954e-01,0.00000000000000e+00	1.00000000000000e+00,0.00000000000000e+00	-6.66666666666667e-07,0.00000000000000e+00
7.76247116628690e+01	-5.38847696554954e-01,0.00000000000000e+00	1.00000000000000e+00,0.00000000000000e+00	-6.66666666666667e-07,0.00000000000000e+00
7.94328234724279e+01	-5.38847696554954e-01,0.00000000000000e+00	1.00000000000000e+00,0.00000000000000e+00	-6.66666666666667e-07,0.00000000000000e+00
8.12830516164097e+01	-5.38847696554954e-01,0.00000000000000e+00	1.00000000000000e+00,0.00000000000000e+00	-6.66666666666667e-07,0.00000000000000e+00
8.31763771102669e+01	-5.38847696554954e-01,0.00000000000000e+00	1.00000000000000e+00,0.00000000000000e+00	-6.66666666666667e-07,0.00000000000000e+00
8.51138038202374e+01	-5.38847696554954e-01,0.00000000000000e+00	1.00000000000000e+00,0.00000000000000e+00	-6.66666666666667e-07,0.00000000000000e+00
8.70963589956078e+01	-5.38847696554954e-01,0.00000000000000e+00	1.00000000000000e+00,0.00000000000000e+00	-6.66666666666667e-07,0.00000000000000e+00
8.91250938133743e+01	-5.38847696554954e-01,0.00000000000000e+00	1.00000000000000e+00,0.00000000000000e+00	-6.66666666666667e-07,0.00000000000000e+00
9.12010839355907e+01	-5.38847696554954e-01,0.00000000000000e+00	1.00000000000000e+00,0.00000000000000e+00	-6.66666666666667e-07,0.00000000000000e+00
9.33254300796988e+01	-5.38847696554954e-01,0.00000000000000e+00	1.00000000000000e+00,0.00000000000000e+00	-6.66666666666667e-07,0.00000000000000e+00
9.54992586021433e+01	-5.38847696554954e-01,0.00000000000000e+00	1.00000000000000e+00,0.00000000000000e+00	-6.66666666666667e-07,0.00000000000000e+00
9.77237220955808e+01	-5.38847696554954e-01,0.00000000000000e+00	1.00000000000000e+00,0.00000000000000e+00	-6.66666666666667e-07,0.00000000000000e+00
9.99999999999997e+01	-5.38847696554954e-01,0.00000000000000e+00	1.00000000000000e+00,0.00000000000000e+00	-6.66666666666667e-07,0.00000000000000e+00
1.02329299228075e+02	-5.38847696554954e-01,0.00000000000000e+00	1.00000000000000e+00,0.00000000000000e+00	-6.66666666666667e-07,0.00000000000000e+00
1.04712854805090e+02	-5.38847696554954e-01,0.00000000000000e+00	1.00000000000000e+00,0.00000000000000e+00	-6.66666666666667e-07,0.00000000000000e+00
1.07151930523760e+02	-5.38847696554954e-01,0.00000000000000e+00	1.00000000000000e+00,0.00000000000000e+00	-6.66666666666667e-07,0.00000000000000e+00
1.09647819614318e+02	-5.38847696554954e-01,0.00000000000000e+00	1.00000000000000e+00,0.00000000000000e+00	-6.66666666666667e-07,0.00000000000000e+00
1.12201845430196e+02	-5.38847696554954e-01,0.00000000000000e+00	1.00000000000000e+00,0.00000000000000e+00	-6.66666666666667e-07,0.00000000000000e+00
1.14815362149688e+02	-5.38847696554954e-01,0.00000000000000e+00	1.00000000000000e+00,0.00000000000000e+00	-6.66666666666667e-07,0.00000000000000e+00
1.17489755493953e+02	-5.38847696554954e-01,0.00000000000000e+00	1.00000000000000e+00,0.00000000000000e+00	-6.66666666666667e-07,0.00000000000000e+00
1.20226443461741e+02	-5.38847696554954e-01,0.00000000000000e+00	1.00000000000000e+00,0.00000000000000e+00	-6.66666666666667e-07,0.00000000000000e+00
1.23026877081238e+02	-5.38847696554954e-01,0.00000000000000e+00	1.00000000000000e+00,0.00000000000000e+00	-6.66666666666667e-07,0.00000000000000e+00
1.25892541179416e+02	-5.38847696554954e-01,0.00000000000000e+00	1.00000000000000e+00,0.00000000000000e+00	-6.66666666666667e-07,0.00000000000000e+00
1.28824955169313e+02	-5.38847696554954e-01,0.00000000000000e+00	1.00000000000000e+00,0.00000000000000e+00	-6.66666666666667e-07,0.00000000000000e+00
1.31825673855640e+02	-5.38847696554954e-01,0.00000000000000e+00	1.00000000000000e+00,0.00000000000000e+00	-6.66666666666667e-07,0.00000000000000e+00
1.34896288259165e+02	-5.38847696554954e-01,0.00000000000000e+00	1.00000000000000e+00,0.00000000000000e+00	-6.66666666666667e-07,0.00000000000000e+00
1.38038426460288e+02	-5.38847696554954e-01,0.00000000000000e+00	1.00000000000000e+00,0.00000000000000e+00	-6.66666666666667e-07,0.00000000000000e+00
1.41253754462275e+02	-5.38847696554954e-01,0.00000000000000e+00	1.00000000000000e+00,0.00000000000000e+00	-6.66666666666667e-07,0.00000000000000e+00
1.44543977074592e+02	-5.38847696554954e-01,0.00000000000000e+00	1.00000000000000e+00,0.00000000000000e+00	-6.66666666666667e-07,0.00000000000000e+00
1.47910838816820e+02	-5.38847696554954e-01,0.00000000000000e+00	1.00000000000000e+00,0.00000000000000e+00	-6.66666666666667e-07,0.00000000000000e+00
1.51356124843620e+02	-5.38847696554954e-01,0.00000000000000e+00	1.00000000000000e+00,0.00000000000000e+00	-6.66666666666667e-07,0.00000000000000e+00
1.54881661891248e+02	-5.38847696554954e-01,0.00000000000000e+00	1.00000000000000e+00,0.00000000000000e+00	-6.66666666666667e-07,0.00000000000000e+00
1.58489319246111e+02	-5.38847696554954e-01,0.00000000000000e+00	1.00000000000000e+00,0.00000000000000e+00	-6.66666666666667e-07,0.00000000000000e+00
1.62181009735892e+02	-5.38847696554954e-01,0.00000000000000e+00	1.00000000000000e+00,0.00000000000000e+00	-6.66666666666667e-07,0.00000000000000e+00
1.65958690743755e+02	-5.38847696554954e-01,0.00000000000000e+00	1.00000000000000e+00,0.00000000000000e+00	-6.66666666666667e-07,0.00000000000000e+00
1.69824365246174e+02	-5.38847696554954e-01,0.00000000000000e+00	1.00000000000000e+00,0.00000000000000e+00	-6.66666666666667e-07,0.00000000000000e+00
1.73780082874937e+02	-5.38847696554954e-01,0.00000000000000e+00	1.00000000000000e+00,0.00000000000000e+00	-6.66666666666667e-07,0.00000000000000e+00
1.77827941003892e+02	-5.38847696554954e-01,0.00000000000000e+00	1.00000000000000e+00,0.00000000000000e+00	-6.66666666666667e-07,0.00000000000000e+00
1.81970085860998e+02	-5.38847696554954e-01,0.00000000000000e+00	1.00000000000000e+00,0.00000000000000e+00	-6.66666666666667e-07,0.00000000000000e+00
1.86208713666286e+02	-5.38847696554954e-01,0.00000000000000e+00	1.00000000000000e+00,0.00000000000000e+00	-6.66666666666667e-07,0.00000000000000e+00
1.90546071796324e+02	-5.38847696554954e-01,0.00000000000000e+00	1.00000000000000e+00,0.00000000000000e+00	-6.66666666666667e-07,0.00000000000000e+00
1.94984459975804e+02	-5.38847696554954e-01,0.00000000000000e+00	1.00000000000000e+00,0.00000000000000e+00	-6.66666666666667e-07,0.00000000000000e+00
1.99526231496887e+02	-5.38847696554954e-01,0.00000000000000e+00	1.00000000000000e+00,0.00000000000000e+00	-6.66666666666667e-07,0.00000000000000e+00
2.04173794466952e+02	-5.38847696554954e-01,0.00000000000000e+00	1.00000000000000e+00,0.00000000000000e+00	-6.66666666666667e-07,0.00000000000000e+00
2.08929613085403e+02	-5.38847696554954e-01,0.00000000000000e+00	1.00000000000000e+00,0.00000000000000e+00	-6.66666666666667e-07,0.00000000000000e+00
2.13796208950222e+02	-5.38847696554954e-01,0.00000000000000e+00	1.00000000000000e+00,0.00000000000000e+00	-6.66666666666667e-07,0.00000000000000e+00
