Freq.	V(vd)
1.00000000000000e+01	(-1.83245824820583e+00dB,-1.78990684172160e+02°)
1.02329299228075e+01	(-1.83225822580583e+00dB,-1.79013622096974e+02°)
1.04712854805090e+01	(-1.83206719182387e+00dB,-1.79036040351678e+02°)
1.07151930523761e+01	(-1.83188474295126e+00dB,-1.79057950601449e+02°)
1.09647819614319e+01	(-1.83171049392250e+00dB,-1.79079364256845e+02°)
1.12201845430196e+01	(-1.83154407671286e+00dB,-1.79100292478876e+02°)
1.14815362149688e+01	(-1.83138513977101e+00dB,-1.79120746184005e+02°)
1.17489755493953e+01	(-1.83123334728563e+00dB,-1.79140736049085e+02°)
1.20226443461741e+01	(-1.83108837848416e+00dB,-1.79160272516222e+02°)
1.23026877081238e+01	(-1.83094992696255e+00dB,-1.79179365797567e+02°)
1.25892541179417e+01	(-1.83081770004463e+00dB,-1.79198025880038e+02°)
1.28824955169313e+01	(-1.83069141816974e+00dB,-1.79216262529964e+02°)
1.31825673855641e+01	(-1.83057081430743e+00dB,-1.79234085297659e+02°)
1.34896288259165e+01	(-1.83045563339810e+00dB,-1.79251503521920e+02°)
1.38038426460288e+01	(-1.83034563181836e+00dB,-1.79268526334452e+02°)
1.41253754462275e+01	(-1.83024057687022e+00dB,-1.79285162664215e+02°)
1.44543977074593e+01	(-1.83014024629268e+00dB,-1.79301421241700e+02°)
1.47910838816821e+01	(-1.83004442779532e+00dB,-1.79317310603127e+02°)
1.51356124843621e+01	(-1.82995291861235e+00dB,-1.79332839094575e+02°)
1.54881661891248e+01	(-1.82986552507654e+00dB,-1.79348014876023e+02°)
1.58489319246111e+01	(-1.82978206221221e+00dB,-1.79362845925338e+02°)
1.62181009735893e+01	(-1.82970235334616e+00dB,-1.79377340042174e+02°)
1.65958690743756e+01	(-1.82962622973605e+00dB,-1.79391504851803e+02°)
1.69824365246174e+01	(-1.82955353021525e+00dB,-1.79405347808873e+02°)
1.73780082874937e+01	(-1.82948410085356e+00dB,-1.79418876201099e+02°)
1.77827941003892e+01	(-1.82941779463302e+00dB,-1.79432097152875e+02°)
1.81970085860998e+01	(-1.82935447113815e+00dB,-1.79445017628826e+02°)
1.86208713666287e+01	(-1.82929399626018e+00dB,-1.79457644437278e+02°)
1.90546071796325e+01	(-1.82923624191421e+00dB,-1.79469984233672e+02°)
1.94984459975804e+01	(-1.82918108576925e+00dB,-1.79482043523904e+02°)
1.99526231496888e+01	(-1.82912841099015e+00dB,-1.79493828667595e+02°)
2.04173794466953e+01	(-1.82907810599108e+00dB,-1.79505345881306e+02°)
2.08929613085404e+01	(-1.82903006420024e+00dB,-1.79516601241673e+02°)
2.13796208950223e+01	(-1.82898418383471e+00dB,-1.79527600688497e+02°)
2.18776162394955e+01	(-1.82894036768569e+00dB,-1.79538350027750e+02°)
2.23872113856834e+01	(-1.82889852291326e+00dB,-1.79548854934535e+02°)
2.29086765276777e+01	(-1.82885856085023e+00dB,-1.79559120955974e+02°)
2.34422881531992e+01	(-1.82882039681485e+00dB,-1.79569153514049e+02°)
2.39883291901949e+01	(-1.82878394993197e+00dB,-1.79578957908367e+02°)
2.45470891568503e+01	(-1.82874914296201e+00dB,-1.79588539318881e+02°)
2.51188643150958e+01	(-1.82871590213780e+00dB,-1.79597902808551e+02°)
2.57039578276886e+01	(-1.82868415700869e+00dB,-1.79607053325933e+02°)
2.63026799189538e+01	(-1.82865384029144e+00dB,-1.79615995707745e+02°)
2.69153480392691e+01	(-1.82862488772812e+00dB,-1.79624734681343e+02°)
2.75422870333816e+01	(-1.82859723795012e+00dB,-1.79633274867172e+02°)
2.81838293126445e+01	(-1.82857083234833e+00dB,-1.79641620781152e+02°)
2.88403150312660e+01	(-1.82854561494927e+00dB,-1.79649776837003e+02°)
2.95120922666638e+01	(-1.82852153229657e+00dB,-1.79657747348545e+02°)
3.01995172040201e+01	(-1.82849853333790e+00dB,-1.79665536531935e+02°)
3.09029543251359e+01	(-1.82847656931692e+00dB,-1.79673148507836e+02°)
3.16227766016838e+01	(-1.82845559367013e+00dB,-1.79680587303582e+02°)
3.23593656929628e+01	(-1.82843556192828e+00dB,-1.79687856855258e+02°)
3.31131121482591e+01	(-1.82841643162227e+00dB,-1.79694961009749e+02°)
3.38844156139202e+01	(-1.82839816219321e+00dB,-1.79701903526751e+02°)
3.46736850452531e+01	(-1.82838071490656e+00dB,-1.79708688080721e+02°)
3.54813389233575e+01	(-1.82836405277016e+00dB,-1.79715318262801e+02°)
3.63078054770101e+01	(-1.82834814045581e+00dB,-1.79721797582695e+02°)
3.71535229097172e+01	(-1.82833294422458e+00dB,-1.79728129470497e+02°)
3.80189396320561e+01	(-1.82831843185523e+00dB,-1.79734317278482e+02°)
3.89045144994280e+01	(-1.82830457257606e+00dB,-1.79740364282866e+02°)
3.98107170553497e+01	(-1.82829133699969e+00dB,-1.79746273685525e+02°)
4.07380277804112e+01	(-1.82827869706080e+00dB,-1.79752048615654e+02°)
4.16869383470335e+01	(-1.82826662595671e+00dB,-1.79757692131431e+02°)
4.26579518801592e+01	(-1.82825509809054e+00dB,-1.79763207221597e+02°)
4.36515832240165e+01	(-1.82824408901715e+00dB,-1.79768596807043e+02°)
4.46683592150962e+01	(-1.82823357539104e+00dB,-1.79773863742334e+02°)
4.57088189614874e+01	(-1.82822353491721e+00dB,-1.79779010817206e+02°)
4.67735141287197e+01	(-1.82821394630371e+00dB,-1.79784040758030e+02°)
4.78630092322638e+01	(-1.82820478921656e+00dB,-1.79788956229262e+02°)
4.89778819368445e+01	(-1.82819604423678e+00dB,-1.79793759834819e+02°)
5.01187233627271e+01	(-1.82818769281901e+00dB,-1.79798454119470e+02°)
5.12861383991364e+01	(-1.82817971725246e+00dB,-1.79803041570157e+02°)
5.24807460249772e+01	(-1.82817210062316e+00dB,-1.79807524617318e+02°)
5.37031796370252e+01	(-1.82816482677825e+00dB,-1.79811905636155e+02°)
5.49540873857623e+01	(-1.82815788029168e+00dB,-1.79816186947903e+02°)
5.62341325190348e+01	(-1.82815124643158e+00dB,-1.79820370821027e+02°)
5.75439937337156e+01	(-1.82814491112889e+00dB,-1.79824459472441e+02°)
5.88843655355588e+01	(-1.82813886094765e+00dB,-1.79828455068658e+02°)
6.02559586074357e+01	(-1.82813308305657e+00dB,-1.79832359726955e+02°)
6.16595001861481e+01	(-1.82812756520169e+00dB,-1.79836175516466e+02°)
6.30957344480192e+01	(-1.82812229568050e+00dB,-1.79839904459279e+02°)
6.45654229034654e+01	(-1.82811726331707e+00dB,-1.79843548531512e+02°)
6.60693448007595e+01	(-1.82811245743838e+00dB,-1.79847109664364e+02°)
6.76082975391980e+01	(-1.82810786785175e+00dB,-1.79850589745102e+02°)
6.91830970918935e+01	(-1.82810348482315e+00dB,-1.79853990618084e+02°)
7.07945784384136e+01	(-1.82809929905657e+00dB,-1.79857314085735e+02°)
7.24435960074988e+01	(-1.82809530167437e+00dB,-1.79860561909475e+02°)
7.41310241300916e+01	(-1.82809148419838e+00dB,-1.79863735810678e+02°)
7.58577575029182e+01	(-1.82808783853200e+00dB,-1.79866837471561e+02°)
7.76247116628690e+01	(-1.82808435694294e+00dB,-1.79869868536078e+02°)
7.94328234724279e+01	(-1.82808103204696e+00dB,-1.79872830610790e+02°)
8.12830516164097e+01	(-1.82807785679205e+00dB,-1.79875725265734e+02°)
8.31763771102669e+01	(-1.82807482444363e+00dB,-1.79878554035206e+02°)
8.51138038202374e+01	(-1.82807192857012e+00dB,-1.79881318418619e+02°)
8.70963589956078e+01	(-1.82806916302945e+00dB,-1.79884019881276e+02°)
8.91250938133743e+01	(-1.82806652195591e+00dB,-1.79886659855132e+02°)
9.12010839355907e+01	(-1.82806399974780e+00dB,-1.79889239739581e+02°)
9.33254300796988e+01	(-1.82806159105556e+00dB,-1.79891760902180e+02°)
9.54992586021433e+01	(-1.82805929077027e+00dB,-1.79894224679366e+02°)
9.77237220955808e+01	(-1.82805709401299e+00dB,-1.79896632377167e+02°)
9.99999999999997e+01	(-1.82805499612441e+00dB,-1.79898985271909e+02°)
1.02329299228075e+02	(-1.82805299265480e+00dB,-1.79901284610874e+02°)
1.04712854805090e+02	(-1.82805107935476e+00dB,-1.79903531612964e+02°)
1.07151930523760e+02	(-1.82804925216615e+00dB,-1.79905727469343e+02°)
1.09647819614318e+02	(-1.82804750721337e+00dB,-1.79907873344075e+02°)
1.12201845430196e+02	(-1.82804584079534e+00dB,-1.79909970374739e+02°)
1.14815362149688e+02	(-1.82804424937751e+00dB,-1.79912019673033e+02°)
1.17489755493953e+02	(-1.82804272958440e+00dB,-1.79914022325350e+02°)
1.20226443461741e+02	(-1.82804127819241e+00dB,-1.79915979393372e+02°)
1.23026877081238e+02	(-1.82803989212310e+00dB,-1.79917891914599e+02°)
1.25892541179416e+02	(-1.82803856843649e+00dB,-1.79919760902951e+02°)
1.28824955169313e+02	(-1.82803730432499e+00dB,-1.79921587349248e+02°)
1.31825673855640e+02	(-1.82803609710733e+00dB,-1.79923372221799e+02°)
1.34896288259165e+02	(-1.82803494422288e+00dB,-1.79925116466846e+02°)
1.38038426460288e+02	(-1.82803384322631e+00dB,-1.79926821009106e+02°)
1.41253754462275e+02	(-1.82803279178234e+00dB,-1.79928486752251e+02°)
1.44543977074592e+02	(-1.82803178766074e+00dB,-1.79930114579387e+02°)
1.47910838816820e+02	(-1.82803082873171e+00dB,-1.79931705353530e+02°)
1.51356124843620e+02	(-1.82802991296127e+00dB,-1.79933259918058e+02°)
1.54881661891248e+02	(-1.82802903840700e+00dB,-1.79934779097129e+02°)
1.58489319246111e+02	(-1.82802820321387e+00dB,-1.79936263696180e+02°)
1.62181009735892e+02	(-1.82802740561040e+00dB,-1.79937714502296e+02°)
1.65958690743755e+02	(-1.82802664390477e+00dB,-1.79939132284649e+02°)
1.69824365246174e+02	(-1.82802591648133e+00dB,-1.79940517794918e+02°)
1.73780082874937e+02	(-1.82802522179715e+00dB,-1.79941871767662e+02°)
1.77827941003892e+02	(-1.82802455837873e+00dB,-1.79943194920723e+02°)
1.81970085860998e+02	(-1.82802392481892e+00dB,-1.79944487955614e+02°)
1.86208713666286e+02	(-1.82802331977387e+00dB,-1.79945751557882e+02°)
1.90546071796324e+02	(-1.82802274196018e+00dB,-1.79946986397462e+02°)
1.94984459975804e+02	(-1.82802219015229e+00dB,-1.79948193129034e+02°)
1.99526231496887e+02	(-1.82802166317972e+00dB,-1.79949372392406e+02°)
2.04173794466952e+02	(-1.82802115992474e+00dB,-1.79950524812798e+02°)
2.08929613085403e+02	(-1.82802067931985e+00dB,-1.79951651001204e+02°)
2.13796208950222e+02	(-1.82802022034568e+00dB,-1.79952751554733e+02°)
2.18776162394954e+02	(-1.82801978202869e+00dB,-1.79953827056864e+02°)
2.23872113856833e+02	(-1.82801936343914e+00dB,-1.79954878077840e+02°)
2.29086765276776e+02	(-1.82801896368916e+00dB,-1.79955905174881e+02°)
2.34422881531991e+02	(-1.82801858193081e+00dB,-1.79956908892576e+02°)
2.39883291901948e+02	(-1.82801821735440e+00dB,-1.79957889763053e+02°)
2.45470891568502e+02	(-1.82801786918658e+00dB,-1.79958848306395e+02°)
2.51188643150957e+02	(-1.82801753668885e+00dB,-1.79959785030813e+02°)
2.57039578276885e+02	(-1.82801721915594e+00dB,-1.79960700432932e+02°)
2.63026799189537e+02	(-1.82801691591432e+00dB,-1.79961594998111e+02°)
2.69153480392690e+02	(-1.82801662632080e+00dB,-1.79962469200663e+02°)
2.75422870333816e+02	(-1.82801634976110e+00dB,-1.79963323504051e+02°)
2.81838293126444e+02	(-1.82801608564861e+00dB,-1.79964158361250e+02°)
2.88403150312659e+02	(-1.82801583342311e+00dB,-1.79964974214904e+02°)
2.95120922666637e+02	(-1.82801559254962e+00dB,-1.79965771497572e+02°)
3.01995172040200e+02	(-1.82801536251719e+00dB,-1.79966550631989e+02°)
3.09029543251358e+02	(-1.82801514283792e+00dB,-1.79967312031214e+02°)
3.16227766016837e+02	(-1.82801493304580e+00dB,-1.79968056098958e+02°)
3.23593656929627e+02	(-1.82801473269590e+00dB,-1.79968783229761e+02°)
3.31131121482590e+02	(-1.82801454136320e+00dB,-1.79969493809104e+02°)
3.38844156139201e+02	(-1.82801435864189e+00dB,-1.79970188213770e+02°)
3.46736850452530e+02	(-1.82801418414437e+00dB,-1.79970866811924e+02°)
3.54813389233574e+02	(-1.82801401750052e+00dB,-1.79971529963367e+02°)
3.63078054770100e+02	(-1.82801385835686e+00dB,-1.79972178019693e+02°)
3.71535229097171e+02	(-1.82801370637586e+00dB,-1.79972811324518e+02°)
3.80189396320559e+02	(-1.82801356123511e+00dB,-1.79973430213601e+02°)
3.89045144994279e+02	(-1.82801342262677e+00dB,-1.79974035015094e+02°)
3.98107170553495e+02	(-1.82801329025682e+00dB,-1.79974626049694e+02°)
4.07380277804111e+02	(-1.82801316384450e+00dB,-1.79975203630726e+02°)
4.16869383470333e+02	(-1.82801304312165e+00dB,-1.79975768064455e+02°)
4.26579518801591e+02	(-1.82801292783221e+00dB,-1.79976319650156e+02°)
4.36515832240164e+02	(-1.82801281773168e+00dB,-1.79976858680239e+02°)
4.46683592150961e+02	(-1.82801271258647e+00dB,-1.79977385440525e+02°)
4.57088189614873e+02	(-1.82801261217357e+00dB,-1.79977900210354e+02°)
4.67735141287196e+02	(-1.82801251627999e+00dB,-1.79978403262577e+02°)
4.78630092322636e+02	(-1.82801242470232e+00dB,-1.79978894863991e+02°)
4.89778819368444e+02	(-1.82801233724633e+00dB,-1.79979375275206e+02°)
5.01187233627270e+02	(-1.82801225372651e+00dB,-1.79979844750909e+02°)
5.12861383991362e+02	(-1.82801217396568e+00dB,-1.79980303540133e+02°)
5.24807460249770e+02	(-1.82801209779470e+00dB,-1.79980751886019e+02°)
5.37031796370250e+02	(-1.82801202505196e+00dB,-1.79981190026325e+02°)
5.49540873857622e+02	(-1.82801195558320e+00dB,-1.79981618193358e+02°)
5.62341325190346e+02	(-1.82801188924102e+00dB,-1.79982036614121e+02°)
5.75439937337154e+02	(-1.82801182588476e+00dB,-1.79982445510530e+02°)
5.88843655355586e+02	(-1.82801176537998e+00dB,-1.79982845099283e+02°)
6.02559586074355e+02	(-1.82801170759836e+00dB,-1.79983235592321e+02°)
6.16595001861479e+02	(-1.82801165241736e+00dB,-1.79983617196666e+02°)
6.30957344480190e+02	(-1.82801159971989e+00dB,-1.79983990114609e+02°)
6.45654229034652e+02	(-1.82801154939421e+00dB,-1.79984354543965e+02°)
6.60693448007592e+02	(-1.82801150133355e+00dB,-1.79984710677881e+02°)
6.76082975391978e+02	(-1.82801145543597e+00dB,-1.79985058705192e+02°)
6.91830970918933e+02	(-1.82801141160415e+00dB,-1.79985398810489e+02°)
7.07945784384134e+02	(-1.82801136974506e+00dB,-1.79985731174011e+02°)
7.24435960074986e+02	(-1.82801132976993e+00dB,-1.79986055972058e+02°)
7.41310241300914e+02	(-1.82801129159399e+00dB,-1.79986373376787e+02°)
7.58577575029180e+02	(-1.82801125513625e+00dB,-1.79986683556515e+02°)
7.76247116628688e+02	(-1.82801122031938e+00dB,-1.79986986675708e+02°)
7.94328234724277e+02	(-1.82801118706953e+00dB,-1.79987282895032e+02°)
8.12830516164095e+02	(-1.82801115531616e+00dB,-1.79987572371606e+02°)
8.31763771102666e+02	(-1.82801112499193e+00dB,-1.79987855258919e+02°)
8.51138038202372e+02	(-1.82801109603251e+00dB,-1.79988131706894e+02°)
8.70963589956076e+02	(-1.82801106837649e+00dB,-1.79988401862162e+02°)
8.91250938133741e+02	(-1.82801104196519e+00dB,-1.79988665867988e+02°)
9.12010839355905e+02	(-1.82801101674259e+00dB,-1.79988923864247e+02°)
9.33254300796986e+02	(-1.82801099265520e+00dB,-1.79989175987864e+02°)
9.54992586021431e+02	(-1.82801096965193e+00dB,-1.79989422372404e+02°)
9.77237220955805e+02	(-1.82801094768395e+00dB,-1.79989663148552e+02°)
9.99999999999994e+02	(-1.82801092670471e+00dB,-1.79989898443972e+02°)
1.02329299228075e+03	(-1.82801090666970e+00dB,-1.79990128383422e+02°)
1.04712854805089e+03	(-1.82801088753640e+00dB,-1.79990353088832e+02°)
1.07151930523760e+03	(-1.82801086926424e+00dB,-1.79990572679286e+02°)
1.09647819614318e+03	(-1.82801085181446e+00dB,-1.79990787271269e+02°)
1.12201845430196e+03	(-1.82801083515005e+00dB,-1.79990996978565e+02°)
1.14815362149688e+03	(-1.82801081923567e+00dB,-1.79991201912316e+02°)
1.17489755493952e+03	(-1.82801080403757e+00dB,-1.79991402181227e+02°)
1.20226443461741e+03	(-1.82801078952347e+00dB,-1.79991597891451e+02°)
1.23026877081237e+03	(-1.82801077566261e+00dB,-1.79991789146787e+02°)
1.25892541179416e+03	(-1.82801076242561e+00dB,-1.79991976048560e+02°)
1.28824955169313e+03	(-1.82801074978437e+00dB,-1.79992158696043e+02°)
1.31825673855640e+03	(-1.82801073771207e+00dB,-1.79992337185888e+02°)
1.34896288259165e+03	(-1.82801072618312e+00dB,-1.79992511612765e+02°)
1.38038426460288e+03	(-1.82801071517306e+00dB,-1.79992682069282e+02°)
1.41253754462275e+03	(-1.82801070465853e+00dB,-1.79992848645687e+02°)
1.44543977074592e+03	(-1.82801069461723e+00dB,-1.79993011430322e+02°)
1.47910838816820e+03	(-1.82801068502786e+00dB,-1.79993170509584e+02°)
1.51356124843620e+03	(-1.82801067587009e+00dB,-1.79993325967799e+02°)
1.54881661891247e+03	(-1.82801066712448e+00dB,-1.79993477887364e+02°)
1.58489319246110e+03	(-1.82801065877251e+00dB,-1.79993626348749e+02°)
1.62181009735892e+03	(-1.82801065079641e+00dB,-1.79993771430722e+02°)
1.65958690743755e+03	(-1.82801064317931e+00dB,-1.79993913210266e+02°)
1.69824365246173e+03	(-1.82801063590503e+00dB,-1.79994051762532e+02°)
1.73780082874936e+03	(-1.82801062895815e+00dB,-1.79994187160885e+02°)
1.77827941003891e+03	(-1.82801062232394e+00dB,-1.79994319477305e+02°)
1.81970085860997e+03	(-1.82801061598831e+00dB,-1.79994448781760e+02°)
1.86208713666286e+03	(-1.82801060993781e+00dB,-1.79994575142872e+02°)
1.90546071796323e+03	(-1.82801060415966e+00dB,-1.79994698627691e+02°)
1.94984459975803e+03	(-1.82801059864155e+00dB,-1.79994819301646e+02°)
1.99526231496887e+03	(-1.82801059337181e+00dB,-1.79994937228759e+02°)
2.04173794466952e+03	(-1.82801058833924e+00dB,-1.79995052471510e+02°)
2.08929613085403e+03	(-1.82801058353317e+00dB,-1.79995165090959e+02°)
2.13796208950222e+03	(-1.82801057894342e+00dB,-1.79995275146963e+02°)
2.18776162394954e+03	(-1.82801057456022e+00dB,-1.79995382697764e+02°)
2.23872113856832e+03	(-1.82801057037432e+00dB,-1.79995487800383e+02°)
2.29086765276776e+03	(-1.82801056637681e+00dB,-1.79995590510561e+02°)
2.34422881531991e+03	(-1.82801056255921e+00dB,-1.79995690882797e+02°)
2.39883291901947e+03	(-1.82801055891344e+00dB,-1.79995788970284e+02°)
2.45470891568501e+03	(-1.82801055543175e+00dB,-1.79995884825040e+02°)
2.51188643150956e+03	(-1.82801055210676e+00dB,-1.79995978497749e+02°)
2.57039578276885e+03	(-1.82801054893141e+00dB,-1.79996070038427e+02°)
2.63026799189536e+03	(-1.82801054589900e+00dB,-1.79996159495282e+02°)
2.69153480392690e+03	(-1.82801054300305e+00dB,-1.79996246915821e+02°)
2.75422870333815e+03	(-1.82801054023745e+00dB,-1.79996332346425e+02°)
2.81838293126443e+03	(-1.82801053759633e+00dB,-1.79996415832385e+02°)
2.88403150312658e+03	(-1.82801053507407e+00dB,-1.79996497417921e+02°)
2.95120922666636e+03	(-1.82801053266531e+00dB,-1.79996577146482e+02°)
3.01995172040199e+03	(-1.82801053036499e+00dB,-1.79996655060052e+02°)
3.09029543251357e+03	(-1.82801052816820e+00dB,-1.79996731200341e+02°)
3.16227766016836e+03	(-1.82801052607027e+00dB,-1.79996805607291e+02°)
3.23593656929626e+03	(-1.82801052406677e+00dB,-1.79996878320435e+02°)
3.31131121482589e+03	(-1.82801052215343e+00dB,-1.79996949378566e+02°)
3.38844156139200e+03	(-1.82801052032623e+00dB,-1.79997018819228e+02°)
3.46736850452529e+03	(-1.82801051858124e+00dB,-1.79997086679179e+02°)
3.54813389233573e+03	(-1.82801051691480e+00dB,-1.79997152994503e+02°)
3.63078054770099e+03	(-1.82801051532337e+00dB,-1.79997217800189e+02°)
3.71535229097170e+03	(-1.82801051380355e+00dB,-1.79997281130864e+02°)
3.80189396320558e+03	(-1.82801051235215e+00dB,-1.79997343019917e+02°)
3.89045144994278e+03	(-1.82801051096606e+00dB,-1.79997403500061e+02°)
3.98107170553494e+03	(-1.82801050964237e+00dB,-1.79997462603705e+02°)
4.07380277804110e+03	(-1.82801050837824e+00dB,-1.79997520361905e+02°)
4.16869383470332e+03	(-1.82801050717101e+00dB,-1.79997576805271e+02°)
4.26579518801589e+03	(-1.82801050601811e+00dB,-1.79997631963991e+02°)
4.36515832240162e+03	(-1.82801050491709e+00dB,-1.79997685866951e+02°)
4.46683592150960e+03	(-1.82801050386565e+00dB,-1.79997738543183e+02°)
4.57088189614871e+03	(-1.82801050286153e+00dB,-1.79997790019919e+02°)
4.67735141287194e+03	(-1.82801050190257e+00dB,-1.79997840325461e+02°)
4.78630092322634e+03	(-1.82801050098681e+00dB,-1.79997889485630e+02°)
4.89778819368442e+03	(-1.82801050011225e+00dB,-1.79997937526816e+02°)
5.01187233627268e+03	(-1.82801049927704e+00dB,-1.79997984474385e+02°)
5.12861383991361e+03	(-1.82801049847944e+00dB,-1.79998030353231e+02°)
5.24807460249768e+03	(-1.82801049771774e+00dB,-1.79998075188149e+02°)
5.37031796370248e+03	(-1.82801049699030e+00dB,-1.79998119002062e+02°)
5.49540873857620e+03	(-1.82801049629562e+00dB,-1.79998161818893e+02°)
5.62341325190344e+03	(-1.82801049563220e+00dB,-1.79998203660900e+02°)
5.75439937337152e+03	(-1.82801049499863e+00dB,-1.79998244550655e+02°)
5.88843655355584e+03	(-1.82801049439359e+00dB,-1.79998284509448e+02°)
6.02559586074353e+03	(-1.82801049381576e+00dB,-1.79998323558909e+02°)
6.16595001861477e+03	(-1.82801049326396e+00dB,-1.79998361719411e+02°)
6.30957344480188e+03	(-1.82801049273696e+00dB,-1.79998399011158e+02°)
6.45654229034650e+03	(-1.82801049223372e+00dB,-1.79998435454192e+02°)
6.60693448007590e+03	(-1.82801049175313e+00dB,-1.79998471067515e+02°)
6.76082975391976e+03	(-1.82801049129414e+00dB,-1.79998505870350e+02°)
6.91830970918931e+03	(-1.82801049085582e+00dB,-1.79998539880724e+02°)
